!File created by NanoVNA
# Hz S RI R 50
20000000  0.545041856 -0.112360360
20025000  0.540830784 -0.123326984
20050000  0.535412544 -0.137213488
20075000  0.534547552 -0.153396656
20100000  0.530945408 -0.167302336
20125000  0.525214784 -0.177091744
20150000  0.520717728 -0.193544448
20175000  0.515949536 -0.206601504
20200000  0.510156160 -0.216092320
20225000  0.502303488 -0.230674832
20250000  0.497424576 -0.244780176
20275000  0.491944480 -0.254956192
20300000  0.484595296 -0.267054144
20325000  0.476289472 -0.281882400
20350000  0.468444256 -0.294372128
20375000  0.461535072 -0.301004096
20400000  0.451234208 -0.315531552
20425000  0.443464768 -0.327569568
20450000  0.436879552 -0.336713664
20475000  0.424723008 -0.349032512
20500000  0.415778592 -0.359330592
20525000  0.408291296 -0.368614496
20550000  0.398026976 -0.375800832
20575000  0.384768256 -0.388468896
20600000  0.373540992 -0.398338432
20625000  0.366597248 -0.406319744
20650000  0.352024128 -0.415058720
20675000  0.340820800 -0.424011584
20700000  0.332636192 -0.431928416
20725000  0.318961184 -0.437338592
20750000  0.305844320 -0.446004640
20775000  0.295515680 -0.453939008
20800000  0.283607328 -0.460510848
20825000  0.268385552 -0.465694208
20850000  0.254913152 -0.470959744
20875000  0.246589328 -0.477495296
20900000  0.230865632 -0.480666016
20925000  0.216956560 -0.486516832
20950000  0.205655952 -0.492498016
20975000  0.190620208 -0.493799552
21000000  0.177126400 -0.497701600
21025000  0.164895968 -0.502862944
21050000  0.153418192 -0.504660064
21075000  0.136914320 -0.504933760
21100000  0.122626504 -0.506232576
21125000  0.110780176 -0.511060128
21150000  0.096327568 -0.508818624
21175000  0.082426224 -0.509922816
21200000  0.069690208 -0.512773696
21225000  0.057955680 -0.509340832
21250000  0.042743728 -0.508922752
21275000  0.029125326 -0.510076096
21300000  0.016488709 -0.509342080
21325000  0.003596728 -0.504141152
21350000 -0.009473910 -0.501085984
21375000 -0.021473570 -0.503134080
21400000 -0.032937572 -0.496835584
21425000 -0.047128676 -0.493239552
21450000 -0.060406324 -0.492600640
21475000 -0.070247016 -0.485982912
21500000 -0.082515472 -0.481317344
21525000 -0.095892640 -0.478823264
21550000 -0.105476296 -0.476366176
21575000 -0.115438704 -0.467159904
21600000 -0.126068400 -0.460369248
21625000 -0.140191024 -0.458342016
21650000 -0.146463024 -0.450579840
21675000 -0.157678784 -0.444187360
21700000 -0.170559424 -0.439753728
21725000 -0.175100848 -0.434643776
21750000 -0.185274944 -0.425862400
21775000 -0.197086192 -0.419093024
21800000 -0.207123984 -0.413155264
21825000 -0.210786336 -0.406210048
21850000 -0.217633312 -0.398476448
21875000 -0.231735520 -0.393210176
21900000 -0.235107184 -0.387972096
21925000 -0.242692832 -0.378159104
21950000 -0.253501568 -0.369428256
21975000 -0.257472304 -0.364884448
22000000 -0.264046400 -0.357353344
22025000 -0.273014464 -0.347657600
22050000 -0.282238464 -0.342425824
22075000 -0.284326240 -0.336533056
22100000 -0.288868640 -0.329799264
22125000 -0.299309696 -0.317750432
22150000 -0.303584000 -0.315065312
22175000 -0.309220640 -0.306211392
22200000 -0.316470464 -0.295116800
22225000 -0.324623968 -0.292794720
22250000 -0.327890560 -0.284070944
22275000 -0.333154144 -0.273787104
22300000 -0.339405120 -0.264670128
22325000 -0.345246080 -0.261119776
22350000 -0.350383232 -0.254328736
22375000 -0.356829088 -0.240189424
22400000 -0.364598976 -0.235350624
22425000 -0.367159584 -0.227381040
22450000 -0.370753024 -0.215654128
22475000 -0.378156416 -0.209045664
22500000 -0.382919040 -0.200744720
22525000 -0.385967232 -0.189977488
22550000 -0.392058528 -0.177808832
22575000 -0.397680864 -0.172061632
22600000 -0.402346752 -0.163737280
22625000 -0.403051616 -0.150279152
22650000 -0.410445504 -0.141731712
22675000 -0.413016096 -0.131597040
22700000 -0.413915328 -0.119968360
22725000 -0.420737248 -0.107681136
22750000 -0.423220960 -0.098857536
22775000 -0.424144000 -0.088029968
22800000 -0.425200960 -0.076102072
22825000 -0.430745184 -0.065345532
22850000 -0.433313824 -0.054540248
22875000 -0.430249216 -0.041628948
22900000 -0.434012352 -0.028877712
22925000 -0.435212640 -0.018781058
22950000 -0.433192384 -0.007799492
22975000 -0.435080256  0.004978959
23000000 -0.435705632  0.016638723
23025000 -0.433908704  0.027703882
23050000 -0.430609088  0.040311488
23075000 -0.432719968  0.052789292
23100000 -0.432525664  0.064800008
23125000 -0.427056320  0.074665352
23150000 -0.426823072  0.088580856
23175000 -0.423803648  0.099568944
23200000 -0.419728832  0.109729648
23225000 -0.416390752  0.123823688
23250000 -0.413762080  0.135296176
23275000 -0.409602560  0.145506576
23300000 -0.404353600  0.155943408
23325000 -0.401065216  0.169728224
23350000 -0.396726432  0.181475952
23375000 -0.389419904  0.189382448
23400000 -0.383764224  0.202378672
23425000 -0.378458656  0.212883984
23450000 -0.372209088  0.221790960
23475000 -0.365552736  0.233714320
23500000 -0.358732544  0.244722096
23525000 -0.351858240  0.253466576
23550000 -0.343655264  0.261938160
23575000 -0.335715968  0.274153024
23600000 -0.328098368  0.284426912
23625000 -0.320082496  0.290649696
23650000 -0.310538976  0.301503488
23675000 -0.302063200  0.309562816
23700000 -0.293475456  0.316985152
23725000 -0.282623136  0.325763840
23750000 -0.273183360  0.333997120
23775000 -0.264137984  0.340998688
23800000 -0.254368576  0.347472448
23825000 -0.242745600  0.355983072
23850000 -0.232177472  0.363235680
23875000 -0.222944992  0.367422880
23900000 -0.210909136  0.374050720
23925000 -0.200167184  0.379784672
23950000 -0.189784240  0.384467456
23975000 -0.177724400  0.390099744
24000000 -0.165907792  0.394932128
24025000 -0.154846960  0.398977440
24050000 -0.143659056  0.402217920
24075000 -0.130487872  0.406324384
24100000 -0.118125312  0.410433216
24125000 -0.108273360  0.411999744
24150000 -0.094459688  0.415017792
24175000 -0.082877944  0.417329664
24200000 -0.071937512  0.418655552
24225000 -0.058448104  0.419673152
24250000 -0.046327204  0.421179712
24275000 -0.034670824  0.422033440
24300000 -0.023279848  0.422135424
24325000 -0.009349708  0.422024832
24350000  0.003492162  0.421733216
24375000  0.013375870  0.420934752
24400000  0.026828514  0.419182368
24425000  0.038713480  0.418123328
24450000  0.049437068  0.416521312
24475000  0.062400800  0.413849792
24500000  0.074401880  0.411047328
24525000  0.085707992  0.408434496
24550000  0.096385080  0.405044320
24575000  0.108904544  0.400592640
24600000  0.120967288  0.396496416
24625000  0.130247816  0.393431008
24650000  0.142282688  0.387318560
24675000  0.153050272  0.382789216
24700000  0.162810464  0.378328928
24725000  0.173228784  0.371436352
24750000  0.183721408  0.365444608
24775000  0.193789952  0.359784512
24800000  0.202895440  0.353888192
24825000  0.212802048  0.345458304
24850000  0.222362544  0.337901888
24875000  0.230508256  0.332271328
24900000  0.239011952  0.323211360
24925000  0.247741136  0.315819776
24950000  0.256089472  0.308629504
24975000  0.263563360  0.299472800
25000000  0.270806912  0.290352512
25025000  0.278419840  0.282026816
25050000  0.284897536  0.273820640
25075000  0.291219872  0.263731984
25100000  0.297245216  0.253816672
25125000  0.303831744  0.245968464
25150000  0.308466752  0.235337712
25175000  0.313889472  0.225855168
25200000  0.319394560  0.216582672
25225000  0.323056480  0.206701744
25250000  0.326993984  0.196354064
25275000  0.331185088  0.186254320
25300000  0.335072896  0.176510688
25325000  0.337165280  0.166008272
25350000  0.339509024  0.155845984
25375000  0.342863840  0.145999824
25400000  0.344075488  0.135951760
25425000  0.345935424  0.125787704
25450000  0.347841152  0.115399128
25475000  0.348340096  0.105301392
25500000  0.348802368  0.095380504
25525000  0.349344032  0.085144456
25550000  0.349814144  0.075625104
25575000  0.348906144  0.065757580
25600000  0.348049280  0.055933996
25625000  0.347609472  0.046034208
25650000  0.345952384  0.036629124
25675000  0.344819936  0.027242336
25700000  0.342755136  0.017623072
25725000  0.340663264  0.008673328
25750000  0.338111712 -0.000344810
25775000  0.335282560 -0.009519248
25800000  0.332297888 -0.018315822
25825000  0.328861280 -0.026660770
25850000  0.325404192 -0.035038968
25875000  0.321508672 -0.043380960
25900000  0.317443872 -0.051318968
25925000  0.313345056 -0.059292708
25950000  0.308393088 -0.066698088
25975000  0.303491136 -0.073915504
26000000  0.298359712 -0.080978976
26025000  0.292982848 -0.087867496
26050000  0.287609952 -0.094408520
26075000  0.281796768 -0.100558664
26100000  0.275806880 -0.106627696
26125000  0.269818080 -0.112040144
26150000  0.263370064 -0.117525584
26175000  0.257068512 -0.122644864
26200000  0.250547584 -0.126987248
26225000  0.243816912 -0.131295352
26250000  0.237039728 -0.135291888
26275000  0.230036384 -0.138766784
26300000  0.223405456 -0.142099376
26325000  0.216150752 -0.144829808
26350000  0.209259968 -0.147505984
26375000  0.202594256 -0.149371792
26400000  0.195436272 -0.151182496
26425000  0.188747952 -0.152657840
26450000  0.182141120 -0.153463008
26475000  0.175264800 -0.154037648
26500000  0.168747584 -0.154365456
26525000  0.162515536 -0.154258464
26550000  0.156387808 -0.153950368
26575000  0.150115968 -0.153217024
26600000  0.144284416 -0.152310336
26625000  0.139042240 -0.151122448
26650000  0.133307560 -0.149293744
26675000  0.128219040 -0.147779952
26700000  0.123676104 -0.145514128
26725000  0.119003112 -0.143317280
26750000  0.114542680 -0.140932784
26775000  0.110768240 -0.138358864
26800000  0.107250008 -0.135566176
26825000  0.103922144 -0.132257312
26850000  0.100814760 -0.129580480
26875000  0.098462792 -0.126330200
26900000  0.096029192 -0.123147112
26925000  0.094020312 -0.120070712
26950000  0.092556392 -0.116923128
26975000  0.091516776 -0.113586288
27000000  0.090506688 -0.110475960
27025000  0.089850808 -0.107521808
27050000  0.089930744 -0.104451032
27075000  0.089781880 -0.101657744
27100000  0.089911400 -0.099090528
27125000  0.091005544 -0.096288496
27150000  0.092151928 -0.094107856
27175000  0.093103872 -0.091963336
27200000  0.095120584 -0.090018024
27225000  0.096562016 -0.088161592
27250000  0.098218264 -0.086799864
27275000  0.100417344 -0.085713912
27300000  0.103189248 -0.084752736
27325000  0.105424312 -0.084389928
27350000  0.107545240 -0.084079080
27375000  0.111047296 -0.084416600
27400000  0.113245232 -0.084569408
27425000  0.116428624 -0.085539632
27450000  0.119486456 -0.086630152
27475000  0.121487232 -0.088047120
27500000  0.123975040 -0.089397304
27525000  0.127766592 -0.092080344
27550000  0.129705656 -0.093911512
27575000  0.132148248 -0.096785920
27600000  0.135097504 -0.100039832
27625000  0.136643072 -0.103169040
27650000  0.138623136 -0.106501080
27675000  0.140639872 -0.110861440
27700000  0.142650944 -0.115173824
27725000  0.143543632 -0.118551352
27750000  0.144178560 -0.122539640
27775000  0.145939184 -0.128622800
27800000  0.145955888 -0.132485048
27825000  0.146159088 -0.137376176
27850000  0.146459584 -0.143586592
27875000  0.146149776 -0.148086592
27900000  0.145675504 -0.153127728
27925000  0.144594960 -0.159171120
27950000  0.143569840 -0.165059104
27975000  0.142141072 -0.169261280
28000000  0.140443552 -0.174027776
28025000  0.137998960 -0.181420352
28050000  0.136147392 -0.185739136
28075000  0.133341088 -0.191055872
28100000  0.129809368 -0.197642512
28125000  0.126975120 -0.201847984
28150000  0.123542040 -0.206977360
28175000  0.119101696 -0.212570224
28200000  0.114853104 -0.217963680
28225000  0.111481472 -0.221886032
28250000  0.107220360 -0.225693168
28275000  0.100859312 -0.231705264
28300000  0.097001584 -0.235082496
28325000  0.091437824 -0.239024000
28350000  0.084870720 -0.243689408
28375000  0.080074304 -0.247013232
28400000  0.074327816 -0.250478176
28425000  0.067593880 -0.253501712
28450000  0.060864132 -0.256861296
28475000  0.055910868 -0.259018416
28500000  0.050268276 -0.261289088
28525000  0.041362872 -0.264030576
28550000  0.036261444 -0.265957808
28575000  0.029345354 -0.267214240
28600000  0.021133226 -0.268665600
28625000  0.015489431 -0.270040896
28650000  0.008720215 -0.270654336
28675000  0.001407131 -0.271066944
28700000 -0.006349006 -0.271536288
28725000 -0.011686688 -0.271994976
28750000 -0.017327224 -0.272049952
28775000 -0.026804898 -0.270706112
28800000 -0.032002456 -0.270910368
28825000 -0.038621508 -0.269515616
28850000 -0.046744304 -0.268021200
28875000 -0.052395296 -0.267516880
28900000 -0.058508656 -0.265950704
28925000 -0.064984880 -0.263934528
28950000 -0.072326112 -0.261573552
28975000 -0.077001744 -0.260931200
29000000 -0.082232864 -0.259746320
29025000 -0.090358920 -0.254877008
29050000 -0.095091376 -0.254125152
29075000 -0.100431384 -0.250989408
29100000 -0.107139616 -0.246732560
29125000 -0.112205928 -0.245368256
29150000 -0.117012528 -0.242574192
29175000 -0.122385288 -0.238909392
29200000 -0.128119048 -0.234424528
29225000 -0.132849304 -0.233446928
29250000 -0.137518368 -0.231538080
29275000 -0.142368128 -0.224271856
29300000 -0.147096544 -0.223099472
29325000 -0.151063776 -0.219328848
29350000 -0.155346848 -0.213441520
29375000 -0.160234688 -0.211157664
29400000 -0.164420800 -0.208154960
29425000 -0.168041952 -0.203939072
29450000 -0.171481792 -0.198498080
29475000 -0.176700960 -0.196815200
29500000 -0.181358848 -0.194171776
29525000 -0.182291600 -0.187210464
29550000 -0.187817760 -0.184787040
29575000 -0.190451600 -0.181195264
29600000 -0.192444016 -0.175546896
29625000 -0.197172992 -0.172091376
29650000 -0.201005920 -0.169080080
29675000 -0.203177504 -0.164763872
29700000 -0.204857936 -0.159677936
29725000 -0.210441920 -0.156433392
29750000 -0.214930624 -0.152768448
29775000 -0.213996912 -0.148190384
29800000 -0.219489856 -0.144388240
29825000 -0.222012992 -0.141270576
29850000 -0.222390064 -0.136551360
29875000 -0.226619952 -0.132247688
29900000 -0.230646064 -0.128092360
29925000 -0.232556560 -0.124575320
29950000 -0.233810848 -0.120636208
29975000 -0.239144672 -0.115630248
30000000 -0.242923104 -0.110911296
